# vsim -c -quiet -l logs/apb_uart_test.log -do "run -all; quit -f" apb_uart_tb "+UVM_TESTNAME=apb_uart_test" 
# Start time: 13:15:42 on Sep 07,2025
# ** Note: (vsim-3812) Design is being optimized...
# //  Questa Sim-64
# //  Version 10.7c win64 Aug 18 2018
# //
# //  Copyright 1991-2018 Mentor Graphics Corporation
# //  All Rights Reserved.
# //
# //  QuestaSim and its associated documentation contain trade
# //  secrets and commercial or financial information that are the property of
# //  Mentor Graphics Corporation and are privileged, confidential,
# //  and exempt from disclosure under the Freedom of Information Act,
# //  5 U.S.C. Section 552. Furthermore, this information
# //  is prohibited from disclosure under the Trade Secrets Act,
# //  18 U.S.C. Section 1905.
# //
# run -all
# ----------------------------------------------------------------
# UVM-1.1d
# (C) 2007-2013 Mentor Graphics Corporation
# (C) 2007-2013 Cadence Design Systems, Inc.
# (C) 2006-2013 Synopsys, Inc.
# (C) 2011-2013 Cypress Semiconductor Corp.
# ----------------------------------------------------------------
# 
#   ***********       IMPORTANT RELEASE NOTES         ************
# 
#   You are using a version of the UVM library that has been compiled
#   with `UVM_NO_DEPRECATED undefined.
#   See http://www.eda.org/svdb/view.php?id=3313 for more details.
# 
#   You are using a version of the UVM library that has been compiled
#   with `UVM_OBJECT_MUST_HAVE_CONSTRUCTOR undefined.
#   See http://www.eda.org/svdb/view.php?id=3770 for more details.
# 
#       (Specify +UVM_NO_RELNOTES to turn off this notice)
# 
# UVM_INFO verilog_src/questa_uvm_pkg-1.2/src/questa_uvm_pkg.sv(215) @ 0: reporter [Questa UVM] QUESTA_UVM-1.2.3
# UVM_INFO verilog_src/questa_uvm_pkg-1.2/src/questa_uvm_pkg.sv(216) @ 0: reporter [Questa UVM]  questa_uvm::init(+struct)
# UVM_INFO @ 0: reporter [RNTST] Running test apb_uart_test...
# MONITOR:Waiting for reset deassertion...
# ******************ENTERED INTO MONITOR befoer forever*********
# [500] APB DRIVER: Starting after reset deassertion
# MONITOR:Reset deasserted, starting monitor...
# UVM_INFO ..\uvm_tb\apb_driver.sv(42) @ 510: uvm_test_top.env.apb_ag.m_driver [APB DRIVER] Got transaction: ADDR=0x10 WDATA=0x1b WRITE=1
# [550] APB DRIVER: Setup done, waiting one clock before access
# [570] APB DRIVER: Access phase, PSEL=1 PENABLE=0
# [570] APB DRIVER: PREADY seen for ADDR=0x4
# ******************ENTERED INTO MONITOR*************************
# WRITE =1, ADDR = 4, WDATA= 27, RDATA= 0
# ******************ENTERED INTO MONITOR: AFTER WRITE(TR)*************************
# WRITE =1, ADDR = 4, WDATA= 27, RDATA= 0
# RDATA = 0 
# [610] APB DRIVER: Transaction completed
# ******************ENTERED INTO MONITOR*************************
# WRITE =1, ADDR = 4, WDATA= 27, RDATA= 0
# ******************ENTERED INTO MONITOR: AFTER WRITE(TR)*************************
# WRITE =1, ADDR = 4, WDATA= 27, RDATA= 0
# UVM_INFO ..\uvm_tb\apb_driver.sv(42) @ 610: uvm_test_top.env.apb_ag.m_driver [APB DRIVER] Got transaction: ADDR=0x8 WDATA=0x3 WRITE=1
# [650] APB DRIVER: Setup done, waiting one clock before access
# [670] APB DRIVER: Access phase, PSEL=1 PENABLE=0
# [670] APB DRIVER: PREADY seen for ADDR=0x2
# ******************ENTERED INTO MONITOR*************************
# WRITE =1, ADDR = 2, WDATA= 3, RDATA= 0
# ******************ENTERED INTO MONITOR: AFTER WRITE(TR)*************************
# WRITE =1, ADDR = 2, WDATA= 3, RDATA= 0
# RDATA = 0 
# [710] APB DRIVER: Transaction completed
# ******************ENTERED INTO MONITOR*************************
# WRITE =1, ADDR = 2, WDATA= 3, RDATA= 0
# ******************ENTERED INTO MONITOR: AFTER WRITE(TR)*************************
# WRITE =1, ADDR = 2, WDATA= 3, RDATA= 0
# UVM_INFO ..\uvm_tb\apb_driver.sv(42) @ 710: uvm_test_top.env.apb_ag.m_driver [APB DRIVER] Got transaction: ADDR=0x0 WDATA=0x55 WRITE=1
# [750] APB DRIVER: Setup done, waiting one clock before access
# [770] APB DRIVER: Access phase, PSEL=1 PENABLE=0
# [770] APB DRIVER: PREADY seen for ADDR=0x0
# ******************ENTERED INTO MONITOR*************************
# WRITE =1, ADDR = 0, WDATA= 85, RDATA= 0
# ******************ENTERED INTO MONITOR: AFTER WRITE(TR)*************************
# WRITE =1, ADDR = 0, WDATA= 85, RDATA= 0
# RDATA = 0 
# [810] APB DRIVER: Transaction completed
# ******************ENTERED INTO MONITOR*************************
# WRITE =1, ADDR = 0, WDATA= 85, RDATA= 0
# ******************ENTERED INTO MONITOR: AFTER WRITE(TR)*************************
# WRITE =1, ADDR = 0, WDATA= 85, RDATA= 0
# UVM_INFO ..\uvm_tb\uart_monitor.sv(28) @ 810: uvm_test_top.env.uart_ag.m_monitor [UART_MON] Detected start bit
# UVM_INFO ..\uvm_tb\apb_driver.sv(42) @ 1110: uvm_test_top.env.apb_ag.m_driver [APB DRIVER] Got transaction: ADDR=0x0 WDATA=0xa5 WRITE=1
# [1150] APB DRIVER: Setup done, waiting one clock before access
# [1170] APB DRIVER: Access phase, PSEL=1 PENABLE=0
# [1170] APB DRIVER: PREADY seen for ADDR=0x0
# ******************ENTERED INTO MONITOR*************************
# WRITE =1, ADDR = 0, WDATA= 165, RDATA= 0
# ******************ENTERED INTO MONITOR: AFTER WRITE(TR)*************************
# WRITE =1, ADDR = 0, WDATA= 165, RDATA= 0
# RDATA = 0 
# [1210] APB DRIVER: Transaction completed
# ******************ENTERED INTO MONITOR*************************
# WRITE =1, ADDR = 0, WDATA= 165, RDATA= 0
# ******************ENTERED INTO MONITOR: AFTER WRITE(TR)*************************
# WRITE =1, ADDR = 0, WDATA= 165, RDATA= 0
# UVM_INFO ..\uvm_tb\apb_driver.sv(42) @ 1510: uvm_test_top.env.apb_ag.m_driver [APB DRIVER] Got transaction: ADDR=0x0 WDATA=0x3c WRITE=1
# [1550] APB DRIVER: Setup done, waiting one clock before access
# [1570] APB DRIVER: Access phase, PSEL=1 PENABLE=0
# [1570] APB DRIVER: PREADY seen for ADDR=0x0
# ******************ENTERED INTO MONITOR*************************
# WRITE =1, ADDR = 0, WDATA= 60, RDATA= 0
# ******************ENTERED INTO MONITOR: AFTER WRITE(TR)*************************
# WRITE =1, ADDR = 0, WDATA= 60, RDATA= 0
# RDATA = 0 
# [1610] APB DRIVER: Transaction completed
# ******************ENTERED INTO MONITOR*************************
# WRITE =1, ADDR = 0, WDATA= 60, RDATA= 0
# ******************ENTERED INTO MONITOR: AFTER WRITE(TR)*************************
# WRITE =1, ADDR = 0, WDATA= 60, RDATA= 0
# UVM_INFO ..\uvm_tb\apb_driver.sv(42) @ 1910: uvm_test_top.env.apb_ag.m_driver [APB DRIVER] Got transaction: ADDR=0x0 WDATA=0xc3 WRITE=1
# [1950] APB DRIVER: Setup done, waiting one clock before access
# [1970] APB DRIVER: Access phase, PSEL=1 PENABLE=0
# [1970] APB DRIVER: PREADY seen for ADDR=0x0
# ******************ENTERED INTO MONITOR*************************
# WRITE =1, ADDR = 0, WDATA= 195, RDATA= 0
# ******************ENTERED INTO MONITOR: AFTER WRITE(TR)*************************
# WRITE =1, ADDR = 0, WDATA= 195, RDATA= 0
# RDATA = 0 
# [2010] APB DRIVER: Transaction completed
# ******************ENTERED INTO MONITOR*************************
# WRITE =1, ADDR = 0, WDATA= 195, RDATA= 0
# ******************ENTERED INTO MONITOR: AFTER WRITE(TR)*************************
# WRITE =1, ADDR = 0, WDATA= 195, RDATA= 0
# UVM_ERROR ..\uvm_tb\apb_uart_scoreboard.sv(32) @ 8210: uvm_test_top.env.scb [TX_MISCOMPARE] Expected TX=0x55 Observed=0xa1
# UVM_INFO ..\uvm_tb\uart_monitor.sv(50) @ 8210: uvm_test_top.env.uart_ag.m_monitor [UART_MON] Observed TX byte: 0xa1
# UVM_INFO ..\uvm_tb\apb_driver.sv(42) @ 35470: uvm_test_top.env.apb_ag.m_driver [APB DRIVER] Got transaction: ADDR=0x0 WDATA=0x0 WRITE=0
# [35510] APB DRIVER: Setup done, waiting one clock before access
# [35530] APB DRIVER: Access phase, PSEL=1 PENABLE=0
# [35530] APB DRIVER: PREADY seen for ADDR=0x0
# ******************ENTERED INTO MONITOR*************************
# WRITE =0, ADDR = 0, WDATA= 0, RDATA= 224
# ******************ENTERED INTO MONITOR: AFTER WRITE(TR)*************************
# WRITE =0, ADDR = 0, WDATA= 0, RDATA= 224
# RDATA = 224 
# UVM_ERROR ..\uvm_tb\apb_uart_scoreboard.sv(42) @ 35550: uvm_test_top.env.scb [RX_MISCOMPARE] Expected RX=0x11 Observed=0xe0
# [35570] APB DRIVER: Transaction completed
# ******************ENTERED INTO MONITOR*************************
# WRITE =0, ADDR = 0, WDATA= 0, RDATA= 224
# ******************ENTERED INTO MONITOR: AFTER WRITE(TR)*************************
# WRITE =0, ADDR = 0, WDATA= 0, RDATA= 224
# UVM_ERROR ..\uvm_tb\apb_uart_scoreboard.sv(42) @ 35570: uvm_test_top.env.scb [RX_MISCOMPARE] Expected RX=0x22 Observed=0xe0
# UVM_INFO ..\uvm_tb\apb_driver.sv(42) @ 35870: uvm_test_top.env.apb_ag.m_driver [APB DRIVER] Got transaction: ADDR=0x0 WDATA=0x0 WRITE=0
# [35910] APB DRIVER: Setup done, waiting one clock before access
# [35930] APB DRIVER: Access phase, PSEL=1 PENABLE=0
# [35930] APB DRIVER: PREADY seen for ADDR=0x0
# ******************ENTERED INTO MONITOR*************************
# WRITE =0, ADDR = 0, WDATA= 0, RDATA= 224
# ******************ENTERED INTO MONITOR: AFTER WRITE(TR)*************************
# WRITE =0, ADDR = 0, WDATA= 0, RDATA= 224
# RDATA = 224 
# UVM_ERROR ..\uvm_tb\apb_uart_scoreboard.sv(42) @ 35950: uvm_test_top.env.scb [RX_MISCOMPARE] Expected RX=0x7e Observed=0xe0
# [35970] APB DRIVER: Transaction completed
# ******************ENTERED INTO MONITOR*************************
# WRITE =0, ADDR = 0, WDATA= 0, RDATA= 224
# ******************ENTERED INTO MONITOR: AFTER WRITE(TR)*************************
# WRITE =0, ADDR = 0, WDATA= 0, RDATA= 224
# UVM_ERROR ..\uvm_tb\apb_uart_scoreboard.sv(42) @ 35970: uvm_test_top.env.scb [RX_MISCOMPARE] Expected RX=0x80 Observed=0xe0
# UVM_INFO ..\uvm_tb\apb_driver.sv(42) @ 36270: uvm_test_top.env.apb_ag.m_driver [APB DRIVER] Got transaction: ADDR=0x0 WDATA=0x0 WRITE=0
# [36310] APB DRIVER: Setup done, waiting one clock before access
# [36330] APB DRIVER: Access phase, PSEL=1 PENABLE=0
# [36330] APB DRIVER: PREADY seen for ADDR=0x0
# ******************ENTERED INTO MONITOR*************************
# WRITE =0, ADDR = 0, WDATA= 0, RDATA= 224
# ******************ENTERED INTO MONITOR: AFTER WRITE(TR)*************************
# WRITE =0, ADDR = 0, WDATA= 0, RDATA= 224
# RDATA = 224 
# [36370] APB DRIVER: Transaction completed
# ******************ENTERED INTO MONITOR*************************
# WRITE =0, ADDR = 0, WDATA= 0, RDATA= 224
# ******************ENTERED INTO MONITOR: AFTER WRITE(TR)*************************
# WRITE =0, ADDR = 0, WDATA= 0, RDATA= 224
# UVM_INFO ..\uvm_tb\apb_driver.sv(42) @ 36670: uvm_test_top.env.apb_ag.m_driver [APB DRIVER] Got transaction: ADDR=0x0 WDATA=0x0 WRITE=0
# [36710] APB DRIVER: Setup done, waiting one clock before access
# [36730] APB DRIVER: Access phase, PSEL=1 PENABLE=0
# [36730] APB DRIVER: PREADY seen for ADDR=0x0
# ******************ENTERED INTO MONITOR*************************
# WRITE =0, ADDR = 0, WDATA= 0, RDATA= 224
# ******************ENTERED INTO MONITOR: AFTER WRITE(TR)*************************
# WRITE =0, ADDR = 0, WDATA= 0, RDATA= 224
# RDATA = 224 
# [36770] APB DRIVER: Transaction completed
# ******************ENTERED INTO MONITOR*************************
# WRITE =0, ADDR = 0, WDATA= 0, RDATA= 224
# ******************ENTERED INTO MONITOR: AFTER WRITE(TR)*************************
# WRITE =0, ADDR = 0, WDATA= 0, RDATA= 224
# UVM_INFO verilog_src/uvm-1.1d/src/base/uvm_objection.svh(1267) @ 39070: reporter [TEST_DONE] 'run' phase is ready to proceed to the 'extract' phase
# 
# --- UVM Report Summary ---
# 
# ** Report counts by severity
# UVM_INFO :   16
# UVM_WARNING :    0
# UVM_ERROR :    5
# UVM_FATAL :    0
# ** Report counts by id
# [APB DRIVER]    10
# [Questa UVM]     2
# [RNTST]     1
# [RX_MISCOMPARE]     4
# [TEST_DONE]     1
# [TX_MISCOMPARE]     1
# [UART_MON]     2
# ** Note: $finish    : C:/questasim64_10.7c/win64/../verilog_src/uvm-1.1d/src/base/uvm_root.svh(430)
#    Time: 39070 ns  Iteration: 54  Instance: /apb_uart_tb
# End time: 13:15:47 on Sep 07,2025, Elapsed time: 0:00:05
# Errors: 0, Warnings: 0
