# vsim -c -quiet -l logs/apb_uart_single_byte_test.log -do "run -all; quit -f" apb_uart_tb "+UVM_TESTNAME=apb_uart_single_byte_test" 
# Start time: 13:15:49 on Sep 07,2025
# ** Note: (vsim-8009) Loading existing optimized design _opt2
# //  Questa Sim-64
# //  Version 10.7c win64 Aug 18 2018
# //
# //  Copyright 1991-2018 Mentor Graphics Corporation
# //  All Rights Reserved.
# //
# //  QuestaSim and its associated documentation contain trade
# //  secrets and commercial or financial information that are the property of
# //  Mentor Graphics Corporation and are privileged, confidential,
# //  and exempt from disclosure under the Freedom of Information Act,
# //  5 U.S.C. Section 552. Furthermore, this information
# //  is prohibited from disclosure under the Trade Secrets Act,
# //  18 U.S.C. Section 1905.
# //
# run -all
# ----------------------------------------------------------------
# UVM-1.1d
# (C) 2007-2013 Mentor Graphics Corporation
# (C) 2007-2013 Cadence Design Systems, Inc.
# (C) 2006-2013 Synopsys, Inc.
# (C) 2011-2013 Cypress Semiconductor Corp.
# ----------------------------------------------------------------
# 
#   ***********       IMPORTANT RELEASE NOTES         ************
# 
#   You are using a version of the UVM library that has been compiled
#   with `UVM_NO_DEPRECATED undefined.
#   See http://www.eda.org/svdb/view.php?id=3313 for more details.
# 
#   You are using a version of the UVM library that has been compiled
#   with `UVM_OBJECT_MUST_HAVE_CONSTRUCTOR undefined.
#   See http://www.eda.org/svdb/view.php?id=3770 for more details.
# 
#       (Specify +UVM_NO_RELNOTES to turn off this notice)
# 
# UVM_INFO verilog_src/questa_uvm_pkg-1.2/src/questa_uvm_pkg.sv(215) @ 0: reporter [Questa UVM] QUESTA_UVM-1.2.3
# UVM_INFO verilog_src/questa_uvm_pkg-1.2/src/questa_uvm_pkg.sv(216) @ 0: reporter [Questa UVM]  questa_uvm::init(+struct)
# UVM_INFO @ 0: reporter [RNTST] Running test apb_uart_single_byte_test...
# MONITOR:Waiting for reset deassertion...
# ******************ENTERED INTO MONITOR befoer forever*********
# [500] APB DRIVER: Starting after reset deassertion
# MONITOR:Reset deasserted, starting monitor...
# UVM_INFO ..\uvm_tb\apb_driver.sv(42) @ 510: uvm_test_top.env.apb_ag.m_driver [APB DRIVER] Got transaction: ADDR=0x10 WDATA=0x1b WRITE=1
# [550] APB DRIVER: Setup done, waiting one clock before access
# [570] APB DRIVER: Access phase, PSEL=1 PENABLE=0
# [570] APB DRIVER: PREADY seen for ADDR=0x4
# ******************ENTERED INTO MONITOR*************************
# WRITE =1, ADDR = 4, WDATA= 27, RDATA= 0
# ******************ENTERED INTO MONITOR: AFTER WRITE(TR)*************************
# WRITE =1, ADDR = 4, WDATA= 27, RDATA= 0
# RDATA = 0 
# [610] APB DRIVER: Transaction completed
# ******************ENTERED INTO MONITOR*************************
# WRITE =1, ADDR = 4, WDATA= 27, RDATA= 0
# ******************ENTERED INTO MONITOR: AFTER WRITE(TR)*************************
# WRITE =1, ADDR = 4, WDATA= 27, RDATA= 0
# UVM_INFO ..\uvm_tb\apb_driver.sv(42) @ 610: uvm_test_top.env.apb_ag.m_driver [APB DRIVER] Got transaction: ADDR=0x8 WDATA=0x3 WRITE=1
# [650] APB DRIVER: Setup done, waiting one clock before access
# [670] APB DRIVER: Access phase, PSEL=1 PENABLE=0
# [670] APB DRIVER: PREADY seen for ADDR=0x2
# ******************ENTERED INTO MONITOR*************************
# WRITE =1, ADDR = 2, WDATA= 3, RDATA= 0
# ******************ENTERED INTO MONITOR: AFTER WRITE(TR)*************************
# WRITE =1, ADDR = 2, WDATA= 3, RDATA= 0
# RDATA = 0 
# [710] APB DRIVER: Transaction completed
# ******************ENTERED INTO MONITOR*************************
# WRITE =1, ADDR = 2, WDATA= 3, RDATA= 0
# ******************ENTERED INTO MONITOR: AFTER WRITE(TR)*************************
# WRITE =1, ADDR = 2, WDATA= 3, RDATA= 0
# UVM_INFO ..\uvm_tb\apb_driver.sv(42) @ 910: uvm_test_top.env.apb_ag.m_driver [APB DRIVER] Got transaction: ADDR=0x0 WDATA=0xa5 WRITE=1
# [950] APB DRIVER: Setup done, waiting one clock before access
# [970] APB DRIVER: Access phase, PSEL=1 PENABLE=0
# [970] APB DRIVER: PREADY seen for ADDR=0x0
# ******************ENTERED INTO MONITOR*************************
# WRITE =1, ADDR = 0, WDATA= 165, RDATA= 0
# ******************ENTERED INTO MONITOR: AFTER WRITE(TR)*************************
# WRITE =1, ADDR = 0, WDATA= 165, RDATA= 0
# RDATA = 0 
# [1010] APB DRIVER: Transaction completed
# ******************ENTERED INTO MONITOR*************************
# WRITE =1, ADDR = 0, WDATA= 165, RDATA= 0
# ******************ENTERED INTO MONITOR: AFTER WRITE(TR)*************************
# WRITE =1, ADDR = 0, WDATA= 165, RDATA= 0
# UVM_INFO ..\uvm_tb\uart_monitor.sv(28) @ 1010: uvm_test_top.env.uart_ag.m_monitor [UART_MON] Detected start bit
# UVM_ERROR ..\uvm_tb\apb_uart_scoreboard.sv(32) @ 8470: uvm_test_top.env.scb [TX_MISCOMPARE] Expected TX=0xa5 Observed=0x21
# UVM_INFO ..\uvm_tb\uart_monitor.sv(50) @ 8470: uvm_test_top.env.uart_ag.m_monitor [UART_MON] Observed TX byte: 0x21
# UVM_INFO ..\uvm_tb\uart_monitor.sv(28) @ 8570: uvm_test_top.env.uart_ag.m_monitor [UART_MON] Detected start bit
# UVM_INFO ..\uvm_tb\apb_driver.sv(42) @ 9610: uvm_test_top.env.apb_ag.m_driver [APB DRIVER] Got transaction: ADDR=0x0 WDATA=0x0 WRITE=0
# [9650] APB DRIVER: Setup done, waiting one clock before access
# [9670] APB DRIVER: Access phase, PSEL=1 PENABLE=0
# [9670] APB DRIVER: PREADY seen for ADDR=0x0
# ******************ENTERED INTO MONITOR*************************
# WRITE =0, ADDR = 0, WDATA= 0, RDATA= 228
# ******************ENTERED INTO MONITOR: AFTER WRITE(TR)*************************
# WRITE =0, ADDR = 0, WDATA= 0, RDATA= 228
# RDATA = 228 
# UVM_ERROR ..\uvm_tb\apb_uart_scoreboard.sv(42) @ 9690: uvm_test_top.env.scb [RX_MISCOMPARE] Expected RX=0x5a Observed=0xe4
# [9710] APB DRIVER: Transaction completed
# ******************ENTERED INTO MONITOR*************************
# WRITE =0, ADDR = 0, WDATA= 0, RDATA= 228
# ******************ENTERED INTO MONITOR: AFTER WRITE(TR)*************************
# WRITE =0, ADDR = 0, WDATA= 0, RDATA= 228
# UVM_INFO verilog_src/uvm-1.1d/src/base/uvm_objection.svh(1267) @ 10010: reporter [TEST_DONE] 'run' phase is ready to proceed to the 'extract' phase
# 
# --- UVM Report Summary ---
# 
# ** Report counts by severity
# UVM_INFO :   11
# UVM_WARNING :    0
# UVM_ERROR :    2
# UVM_FATAL :    0
# ** Report counts by id
# [APB DRIVER]     4
# [Questa UVM]     2
# [RNTST]     1
# [RX_MISCOMPARE]     1
# [TEST_DONE]     1
# [TX_MISCOMPARE]     1
# [UART_MON]     3
# ** Note: $finish    : C:/questasim64_10.7c/win64/../verilog_src/uvm-1.1d/src/base/uvm_root.svh(430)
#    Time: 10010 ns  Iteration: 54  Instance: /apb_uart_tb
# End time: 13:15:51 on Sep 07,2025, Elapsed time: 0:00:02
# Errors: 0, Warnings: 0
